T2C540 000:008.185   SEGGER J-Link V9.48 Log File
T2C540 000:009.050   DLL Compiled: Jun  3 2026 14:16:04
T2C540 000:009.066   Logging started @ 2026-08-09 02:14
T2C540 000:009.077   Process: D:\Keil_v5\UV4\UV4.exe
T2C540 000:009.589 - 9.088ms 
T2C540 000:009.807 JLINK_SetWarnOutHandler(...)
T2C540 000:009.824 - 0.205ms 
T2C540 000:009.845 JLINK_OpenEx(...)
T2C540 000:017.459   Firmware: J-Link V9 compiled May  7 2021 16:26:12
T2C540 000:018.359   Firmware: J-Link V9 compiled May  7 2021 16:26:12
T2C540 000:019.364   Decompressing FW timestamp took 523 us
T2C540 000:025.298   Hardware: V9.70
T2C540 000:025.334   S/N: 609799999
T2C540 000:025.347   OEM: SEGGER
T2C540 000:025.360   Feature(s): GDB, RDI, FlashBP, FlashDL, JFlash
T2C540 000:026.456   Bootloader: (FW returned invalid version)
T2C540 000:027.297   TELNET listener socket opened on port 19021
T2C540 000:027.473   WEBSRV WEBSRV_Init(): Starting webserver thread(s)
T2C540 000:027.707   WEBSRV Webserver running on local port 19080
T2C540 000:027.842   Looking for J-Link GUI Server exe at: D:\Keil_v5\ARM\Segger\JLinkGUIServer.exe
T2C540 000:028.009   Looking for J-Link GUI Server exe at: C:\Program Files\SEGGER\JLink_V948\JLinkGUIServer.exe
T2C540 000:028.061   Forking J-Link GUI Server: C:\Program Files\SEGGER\JLink_V948\JLinkGUIServer.exe
T2C540 000:067.577   J-Link GUI Server info: "J-Link GUI server V9.48 "
T2C540 000:071.565 - 61.523ms returns "O.K."
T2C540 000:071.608 JLINK_GetEmuCaps()
T2C540 000:071.623 - 0.011ms returns 0xB9FF7BBF
T2C540 000:071.639 JLINK_TIF_GetAvailable(...)
T2C540 000:071.796 - 0.156ms 
T2C540 000:071.819 JLINK_SetErrorOutHandler(...)
T2C540 000:071.840 - 0.020ms 
T2C540 000:072.269 JLINK_ExecCommand("ProjectFile = "D:\SVN\projects\BSR1901\software\sdk\JLinkSettings.ini"", ...). 
T2C540 000:116.674   Ref file found at: D:\Keil_v5\ARM\Segger\JLinkDevices.ref
T2C540 000:116.867   REF file references invalid XML file: C:\Program Files\SEGGER\JLink_V948\JLinkDevices.xml
T2C540 000:116.978 - 44.712ms returns 0x00
T2C540 000:122.285 JLINK_ExecCommand("Device = ARMCM0", ...). 
T2C540 000:129.162   Device "CORTEX-M0" selected.
T2C540 000:129.600 - 7.314ms returns 0x00
T2C540 000:129.823   ERROR: Unknown command
T2C540 000:129.857 JLINK_GetHardwareVersion()
T2C540 000:129.870 - 0.008ms returns 97000
T2C540 000:129.880 JLINK_GetDLLVersion()
T2C540 000:129.888 - 0.007ms returns 94800
T2C540 000:129.900 JLINK_GetOEMString(...)
T2C540 000:129.911 JLINK_GetFirmwareString(...)
T2C540 000:129.919 - 0.007ms 
T2C540 000:147.988 JLINK_GetDLLVersion()
T2C540 000:148.016 - 0.028ms returns 94800
T2C540 000:148.026 JLINK_GetCompileDateTime()
T2C540 000:148.034 - 0.007ms 
T2C540 000:153.864 JLINK_GetFirmwareString(...)
T2C540 000:153.922 - 0.057ms 
T2C540 000:158.891 JLINK_GetHardwareVersion()
T2C540 000:158.928 - 0.037ms returns 97000
T2C540 000:164.560 JLINK_GetSN()
T2C540 000:164.588 - 0.027ms returns 609799999
T2C540 000:169.450 JLINK_GetOEMString(...)
T2C540 000:179.388 JLINK_TIF_Select(JLINKARM_TIF_SWD)
T2C540 000:180.078 - 0.877ms returns 0x00
T2C540 000:180.097 JLINK_HasError()
T2C540 000:180.130 JLINK_SetSpeed(1000)
T2C540 000:180.211 - 0.084ms 
T2C540 000:180.229 JLINK_GetId()
T2C540 000:186.103   Found SW-DP with ID 0xBBB11477
T2C540 000:195.971   DPIDR: 0xBBB11477
T2C540 000:204.134   CoreSight SoC-400 or earlier
T2C540 000:209.164   Scanning AP map to find all available APs
T2C540 000:216.036   AP[1]: Stopped AP scan as end of AP map has been reached
T2C540 000:220.824   AP[0]: AHB-AP (IDR: 0xF4770021, ADDR: 0x00000000)
T2C540 000:225.763   Iterating through AP map to find AHB-AP to use
T2C540 000:232.770   AP[0]: Core found
T2C540 000:237.678   AP[0]: AHB-AP ROM base: 0xE00FF000
T2C540 000:243.431   CPUID register: 0x410CC200. Implementer code: 0x41 (ARM)
T2C540 000:252.332   Found Cortex-M0 r0p0, Little endian.
T2C540 000:252.738   -- Max. mem block: 0x00010E60
T2C540 000:253.318   CPU_ReadMem(4 bytes @ 0xE000EDF0)
T2C540 000:253.841   CPU_WriteMem(4 bytes @ 0xE000EDF0)
T2C540 000:254.336   CPU_ReadMem(4 bytes @ 0xE0002000)
T2C540 000:260.371   FPUnit: 2 code (BP) slots and 0 literal slots
T2C540 000:260.413   CPU_ReadMem(4 bytes @ 0xE000EDFC)
T2C540 000:260.982   CPU_WriteMem(4 bytes @ 0xE000EDFC)
T2C540 000:261.541   CPU_ReadMem(4 bytes @ 0xE0001000)
T2C540 000:262.335   CPU_WriteMem(4 bytes @ 0xE0001000)
T2C540 000:268.155   CoreSight components:
T2C540 000:273.079   ROMTbl[0] @ E00FF000
T2C540 000:273.112   CPU_ReadMem(64 bytes @ 0xE00FF000)
T2C540 000:274.925   CPU_ReadMem(32 bytes @ 0xE000EFE0)
T2C540 000:283.913   [0][0]: E000E000 CID B105E00D PID 000BB008 SCS
T2C540 000:283.961   CPU_ReadMem(32 bytes @ 0xE0001FE0)
T2C540 000:290.389   [0][1]: E0001000 CID B105E00D PID 000BB00A DWT
T2C540 000:290.426   CPU_ReadMem(32 bytes @ 0xE0002FE0)
T2C540 000:302.288   [0][2]: E0002000 CID B105E00D PID 000BB00B FPB
T2C540 000:302.653 - 122.422ms returns 0xBBB11477
T2C540 000:302.693 JLINK_GetDLLVersion()
T2C540 000:302.701 - 0.007ms returns 94800
T2C540 000:302.729 JLINK_CORE_GetFound()
T2C540 000:302.737 - 0.007ms returns 0x60000FF
T2C540 000:302.749 JLINK_GetDebugInfo(0x100 = JLINKARM_ROM_TABLE_ADDR_INDEX)
T2C540 000:302.758   Value=0xE00FF000
T2C540 000:302.785 - 0.020ms returns 0
T2C540 000:307.658 JLINK_GetDebugInfo(0x100 = JLINKARM_ROM_TABLE_ADDR_INDEX)
T2C540 000:307.703   Value=0xE00FF000
T2C540 000:307.715 - 0.075ms returns 0
T2C540 000:307.726 JLINK_GetDebugInfo(0x101 = JLINKARM_DEBUG_INFO_ETM_ADDR_INDEX)
T2C540 000:307.734   Value=0x00000000
T2C540 000:307.745 - 0.018ms returns 0
T2C540 000:307.764 JLINK_ReadMemEx(0xE0041FF0, 0x10 Bytes, Flags = 0x02000004)
T2C540 000:308.658   CPU_ReadMem(16 bytes @ 0xE0041FF0)
T2C540 000:310.100   Data:  00 00 00 00 00 00 00 00 00 00 00 00 00 00 00 00
T2C540 000:310.137 - 2.373ms returns 16 (0x10)
T2C540 000:310.159 JLINK_GetDebugInfo(0x102 = JLINKARM_DEBUG_INFO_MTB_ADDR_INDEX)
T2C540 000:310.171   Value=0x00000000
T2C540 000:310.186 - 0.027ms returns 0
T2C540 000:310.206 JLINK_GetDebugInfo(0x103 = JLINKARM_DEBUG_INFO_TPIU_ADDR_INDEX)
T2C540 000:310.219   Value=0x00000000
T2C540 000:310.237 - 0.031ms returns 0
T2C540 000:310.260 JLINK_ReadMemEx(0xE0040FF0, 0x10 Bytes, Flags = 0x02000004)
T2C540 000:310.288   CPU_ReadMem(16 bytes @ 0xE0040FF0)
T2C540 000:311.038   Data:  00 00 00 00 00 00 00 00 00 00 00 00 00 00 00 00
T2C540 000:311.071 - 0.811ms returns 16 (0x10)
T2C540 000:311.092 JLINK_GetDebugInfo(0x104 = JLINKARM_DEBUG_INFO_ITM_ADDR_INDEX)
T2C540 000:311.104   Value=0xE0000000
T2C540 000:311.119 - 0.027ms returns 0
T2C540 000:311.131 JLINK_GetDebugInfo(0x105 = JLINKARM_DEBUG_INFO_DWT_ADDR_INDEX)
T2C540 000:311.140   Value=0xE0001000
T2C540 000:311.167 - 0.036ms returns 0
T2C540 000:311.178 JLINK_GetDebugInfo(0x106 = JLINKARM_DEBUG_INFO_FPB_ADDR_INDEX)
T2C540 000:311.186   Value=0xE0002000
T2C540 000:311.197 - 0.019ms returns 0
T2C540 000:311.218 JLINK_GetDebugInfo(0x107 = JLINKARM_DEBUG_INFO_NVIC_ADDR_INDEX)
T2C540 000:311.229   Value=0xE000E000
T2C540 000:311.241 - 0.023ms returns 0
T2C540 000:311.254 JLINK_GetDebugInfo(0x10C = JLINKARM_DEBUG_INFO_DBG_ADDR_INDEX)
T2C540 000:311.263   Value=0xE000EDF0
T2C540 000:311.276 - 0.021ms returns 0
T2C540 000:311.290 JLINK_GetDebugInfo(0x01 = Unknown)
T2C540 000:311.299   Value=0x00000000
T2C540 000:311.375 - 0.085ms returns 0
T2C540 000:311.387 JLINK_ReadMemU32(0xE000ED00, 0x1 Items)
T2C540 000:311.400   CPU_ReadMem(4 bytes @ 0xE000ED00)
T2C540 000:312.033   Data:  00 C2 0C 41
T2C540 000:312.263   Debug reg: CPUID
T2C540 000:312.278 - 0.891ms returns 1 (0x1)
T2C540 000:312.292 JLINK_GetDebugInfo(0x10F = JLINKARM_DEBUG_INFO_HAS_CORTEX_M_SECURITY_EXT_INDEX)
T2C540 000:312.300   Value=0x00000000
T2C540 000:312.310 - 0.018ms returns 0
T2C540 000:312.320 JLINK_HasError()
T2C540 000:312.330 JLINK_SetResetType(JLINKARM_CM3_RESET_TYPE_NORMAL)
T2C540 000:312.338 - 0.007ms returns JLINKARM_CM3_RESET_TYPE_NORMAL
T2C540 000:312.350 JLINK_Reset()
T2C540 000:312.370   JLINK_GetResetTypeDesc
T2C540 000:312.378   - 0.007ms 
T2C540 000:317.070   Reset type: NORMAL (https://kb.segger.com/J-Link_Reset_Strategies)
T2C540 000:317.101   CPU is running
T2C540 000:317.118   CPU_WriteMem(4 bytes @ 0xE000EDF0)
T2C540 000:317.706   CPU is running
T2C540 000:317.726   CPU_WriteMem(4 bytes @ 0xE000EDFC)
T2C540 000:322.885   Reset: Halt core after reset via DEMCR.VC_CORERESET.
T2C540 000:329.212   Reset: Reset device via AIRCR.SYSRESETREQ.
T2C540 000:329.244   CPU is running
T2C540 000:329.259   CPU_WriteMem(4 bytes @ 0xE000ED0C)
T2C540 000:384.009   CPU_ReadMem(4 bytes @ 0xE000EDF0)
T2C540 000:384.878   CPU_ReadMem(4 bytes @ 0xE000EDF0)
T2C540 000:392.207   CPU_WriteMem(4 bytes @ 0xE000EDFC)
T2C540 000:398.386   CPU_ReadMem(4 bytes @ 0xE000EDF0)
T2C540 000:405.797   CPU_WriteMem(4 bytes @ 0xE0002000)
T2C540 000:406.782   CPU_ReadMem(4 bytes @ 0xE000EDFC)
T2C540 000:407.678   CPU_ReadMem(4 bytes @ 0xE0001000)
T2C540 000:408.680   CPU_WriteMem(4 bytes @ 0xE0001000)
T2C540 000:409.409 - 97.057ms 
T2C540 000:409.464 JLINK_Halt()
T2C540 000:409.473 - 0.009ms returns 0x00
T2C540 000:409.488 JLINK_ReadMemU32(0xE000EDF0, 0x1 Items)
T2C540 000:409.512   CPU_ReadMem(4 bytes @ 0xE000EDF0)
T2C540 000:410.083   Data:  03 00 03 00
T2C540 000:410.114   Debug reg: DHCSR
T2C540 000:410.139 - 0.651ms returns 1 (0x1)
T2C540 000:410.286 JLINK_WriteU32(0xE000EDF0, 0xA05F0003)
T2C540 000:410.300   Debug reg: DHCSR
T2C540 000:410.660   CPU_WriteMem(4 bytes @ 0xE000EDF0)
T2C540 000:411.729 - 1.441ms returns 0 (0x00000000)
T2C540 000:411.763 JLINK_WriteU32(0xE000EDFC, 0x01000000)
T2C540 000:411.773   Debug reg: DEMCR
T2C540 000:411.815   CPU_WriteMem(4 bytes @ 0xE000EDFC)
T2C540 000:412.786 - 1.021ms returns 0 (0x00000000)
T2C540 000:433.218 JLINK_GetHWStatus(...)
T2C540 000:433.518 - 0.840ms returns 0
T2C540 000:452.912 JLINK_GetNumBPUnits(Type = 0xFFFFFF00)
T2C540 000:452.939 - 0.026ms returns 0x02
T2C540 000:452.949 JLINK_GetNumBPUnits(Type = 0xF0)
T2C540 000:452.957 - 0.007ms returns 0x2000
T2C540 000:452.966 JLINK_GetNumWPUnits()
T2C540 000:452.973 - 0.007ms returns 2
T2C540 000:468.969 JLINK_GetSpeed()
T2C540 000:468.994 - 0.025ms returns 1000
T2C540 000:478.923 JLINK_ReadMemU32(0xE000E004, 0x1 Items)
T2C540 000:478.960   CPU_ReadMem(4 bytes @ 0xE000E004)
T2C540 000:479.815   Data:  00 00 00 00
T2C540 000:479.839 - 0.916ms returns 1 (0x1)
T2C540 000:479.857 JLINK_Halt()
T2C540 000:479.865 - 0.007ms returns 0x00
T2C540 000:479.874 JLINK_IsHalted()
T2C540 000:479.882 - 0.007ms returns TRUE
T2C540 000:489.006 JLINK_WriteMem(0x20000000, 0x4A4 Bytes, ...)
T2C540 000:489.024   Data:  00 BE 0A E0 0D 78 2D 06 68 40 08 24 40 00 00 D3 ...
T2C540 000:489.362   CPU_WriteMem(1188 bytes @ 0x20000000)
T2C540 000:505.703 - 16.697ms returns 0x4A4
T2C540 000:505.775 JLINK_HasError()
T2C540 000:505.802 JLINK_WriteReg(R0, 0x00000000)
T2C540 000:505.813 - 0.022ms returns 0
T2C540 000:505.824 JLINK_WriteReg(R1, 0x00B71B00)
T2C540 000:505.831 - 0.007ms returns 0
T2C540 000:505.840 JLINK_WriteReg(R2, 0x00000001)
T2C540 000:505.847 - 0.007ms returns 0
T2C540 000:505.857 JLINK_WriteReg(R3, 0x00000000)
T2C540 000:505.864 - 0.007ms returns 0
T2C540 000:505.873 JLINK_WriteReg(R4, 0x00000000)
T2C540 000:505.880 - 0.007ms returns 0
T2C540 000:505.889 JLINK_WriteReg(R5, 0x00000000)
T2C540 000:505.896 - 0.007ms returns 0
T2C540 000:505.906 JLINK_WriteReg(R6, 0x00000000)
T2C540 000:505.913 - 0.007ms returns 0
T2C540 000:505.922 JLINK_WriteReg(R7, 0x00000000)
T2C540 000:505.929 - 0.006ms returns 0
T2C540 000:505.939 JLINK_WriteReg(R8, 0x00000000)
T2C540 000:505.946 - 0.007ms returns 0
T2C540 000:505.956 JLINK_WriteReg(R9, 0x20000490)
T2C540 000:505.963 - 0.007ms returns 0
T2C540 000:505.972 JLINK_WriteReg(R10, 0x00000000)
T2C540 000:505.979 - 0.007ms returns 0
T2C540 000:505.988 JLINK_WriteReg(R11, 0x00000000)
T2C540 000:505.995 - 0.007ms returns 0
T2C540 000:506.005 JLINK_WriteReg(R12, 0x00000000)
T2C540 000:506.012 - 0.007ms returns 0
T2C540 000:506.022 JLINK_WriteReg(R13 (SP), 0x20001000)
T2C540 000:506.030 - 0.008ms returns 0
T2C540 000:506.040 JLINK_WriteReg(R14, 0x20000001)
T2C540 000:506.052 - 0.012ms returns 0
T2C540 000:506.069 JLINK_WriteReg(R15 (PC), 0x20000020)
T2C540 000:506.077 - 0.011ms returns 0
T2C540 000:506.087 JLINK_WriteReg(XPSR, 0x01000000)
T2C540 000:506.094 - 0.007ms returns 0
T2C540 000:506.103 JLINK_WriteReg(MSP, 0x20001000)
T2C540 000:506.111 - 0.007ms returns 0
T2C540 000:506.120 JLINK_WriteReg(PSP, 0x20001000)
T2C540 000:506.134 - 0.013ms returns 0
T2C540 000:506.146 JLINK_WriteReg(CFBP, 0x00000000)
T2C540 000:506.154 - 0.007ms returns 0
T2C540 000:506.164 JLINK_SetBPEx(Addr = 0x20000000, Type = 0xFFFFFFF2)
T2C540 000:506.178   CPU_ReadMem(4 bytes @ 0x20000000)
T2C540 000:507.024   CPU_WriteMem(4 bytes @ 0x20000000)
T2C540 000:508.216   CPU_ReadMem(4 bytes @ 0x20000000)
T2C540 000:509.510   CPU_WriteMem(4 bytes @ 0x20000000)
T2C540 000:510.116   CPU_ReadMem(2 bytes @ 0x20000000)
T2C540 000:510.881 - 4.713ms returns 0x00000001
T2C540 000:510.929 JLINK_Go()
T2C540 000:510.965   CPU_WriteMem(2 bytes @ 0x20000000)
T2C540 000:512.178   CPU_ReadMem(4 bytes @ 0xE0001000)
T2C540 000:513.425   CPU_WriteMem(4 bytes @ 0xE0001000)
T2C540 000:514.692   CPU_WriteMem(4 bytes @ 0xE0002008)
T2C540 000:514.749   CPU_WriteMem(4 bytes @ 0xE000200C)
T2C540 000:516.304   CPU_WriteMem(4 bytes @ 0xE0001004)
T2C540 000:529.790   Memory map 'after startup completion point' is active
T2C540 000:529.822 - 18.892ms 
T2C540 000:529.841 JLINK_IsHalted()
T2C540 000:535.992   CPU_ReadMem(2 bytes @ 0x20000000)
T2C540 000:536.596 - 6.754ms returns TRUE
T2C540 000:536.619 JLINK_ReadReg(R15 (PC))
T2C540 000:536.629 - 0.009ms returns 0x20000000
T2C540 000:536.713 JLINK_ClrBPEx(BPHandle = 0x00000001)
T2C540 000:536.726 - 0.012ms returns 0x00
T2C540 000:536.737 JLINK_ReadReg(R0)
T2C540 000:536.745 - 0.008ms returns 0x00000000
T2C540 000:537.231 JLINK_HasError()
T2C540 000:537.247 JLINK_WriteReg(R0, 0x00000000)
T2C540 000:537.256 - 0.009ms returns 0
T2C540 000:537.267 JLINK_WriteReg(R1, 0x00001000)
T2C540 000:537.274 - 0.007ms returns 0
T2C540 000:537.285 JLINK_WriteReg(R2, 0x000000FF)
T2C540 000:537.292 - 0.007ms returns 0
T2C540 000:537.302 JLINK_WriteReg(R3, 0x00000000)
T2C540 000:537.310 - 0.007ms returns 0
T2C540 000:537.320 JLINK_WriteReg(R4, 0x00000000)
T2C540 000:537.327 - 0.007ms returns 0
T2C540 000:537.337 JLINK_WriteReg(R5, 0x00000000)
T2C540 000:537.344 - 0.007ms returns 0
T2C540 000:537.354 JLINK_WriteReg(R6, 0x00000000)
T2C540 000:537.361 - 0.007ms returns 0
T2C540 000:537.371 JLINK_WriteReg(R7, 0x00000000)
T2C540 000:537.379 - 0.007ms returns 0
T2C540 000:537.388 JLINK_WriteReg(R8, 0x00000000)
T2C540 000:537.396 - 0.007ms returns 0
T2C540 000:537.406 JLINK_WriteReg(R9, 0x20000490)
T2C540 000:537.413 - 0.007ms returns 0
T2C540 000:537.423 JLINK_WriteReg(R10, 0x00000000)
T2C540 000:537.431 - 0.007ms returns 0
T2C540 000:537.440 JLINK_WriteReg(R11, 0x00000000)
T2C540 000:537.448 - 0.007ms returns 0
T2C540 000:537.458 JLINK_WriteReg(R12, 0x00000000)
T2C540 000:537.465 - 0.007ms returns 0
T2C540 000:537.475 JLINK_WriteReg(R13 (SP), 0x20001000)
T2C540 000:537.483 - 0.008ms returns 0
T2C540 000:537.493 JLINK_WriteReg(R14, 0x20000001)
T2C540 000:537.500 - 0.007ms returns 0
T2C540 000:537.510 JLINK_WriteReg(R15 (PC), 0x20000028)
T2C540 000:537.518 - 0.007ms returns 0
T2C540 000:537.528 JLINK_WriteReg(XPSR, 0x01000000)
T2C540 000:537.535 - 0.007ms returns 0
T2C540 000:537.545 JLINK_WriteReg(MSP, 0x20001000)
T2C540 000:537.552 - 0.007ms returns 0
T2C540 000:537.562 JLINK_WriteReg(PSP, 0x20001000)
T2C540 000:537.570 - 0.007ms returns 0
T2C540 000:537.581 JLINK_WriteReg(CFBP, 0x00000000)
T2C540 000:537.589 - 0.007ms returns 0
T2C540 000:537.599 JLINK_SetBPEx(Addr = 0x20000000, Type = 0xFFFFFFF2)
T2C540 000:537.607 - 0.008ms returns 0x00000002
T2C540 000:537.617 JLINK_Go()
T2C540 000:537.631   CPU_ReadMem(4 bytes @ 0xE0001000)
T2C540 000:544.427 - 6.808ms 
T2C540 000:544.459 JLINK_IsHalted()
T2C540 000:550.400   CPU_ReadMem(2 bytes @ 0x20000000)
T2C540 000:551.565 - 7.105ms returns TRUE
T2C540 000:551.599 JLINK_ReadReg(R15 (PC))
T2C540 000:551.670 - 0.071ms returns 0x20000000
T2C540 000:551.706 JLINK_ClrBPEx(BPHandle = 0x00000002)
T2C540 000:551.730 - 0.024ms returns 0x00
T2C540 000:551.779 JLINK_ReadReg(R0)
T2C540 000:551.805 - 0.025ms returns 0x00000001
T2C540 000:551.816 JLINK_HasError()
T2C540 000:551.828 JLINK_WriteReg(R0, 0x00000000)
T2C540 000:551.837 - 0.008ms returns 0
T2C540 000:551.847 JLINK_WriteReg(R1, 0x00001000)
T2C540 000:551.855 - 0.007ms returns 0
T2C540 000:551.865 JLINK_WriteReg(R2, 0x000000FF)
T2C540 000:551.873 - 0.007ms returns 0
T2C540 000:551.882 JLINK_WriteReg(R3, 0x00000000)
T2C540 000:551.890 - 0.007ms returns 0
T2C540 000:551.899 JLINK_WriteReg(R4, 0x00000000)
T2C540 000:551.907 - 0.007ms returns 0
T2C540 000:551.916 JLINK_WriteReg(R5, 0x00000000)
T2C540 000:551.923 - 0.007ms returns 0
T2C540 000:551.933 JLINK_WriteReg(R6, 0x00000000)
T2C540 000:551.940 - 0.007ms returns 0
T2C540 000:551.950 JLINK_WriteReg(R7, 0x00000000)
T2C540 000:551.957 - 0.007ms returns 0
T2C540 000:551.967 JLINK_WriteReg(R8, 0x00000000)
T2C540 000:551.974 - 0.007ms returns 0
T2C540 000:551.984 JLINK_WriteReg(R9, 0x20000490)
T2C540 000:551.991 - 0.007ms returns 0
T2C540 000:552.001 JLINK_WriteReg(R10, 0x00000000)
T2C540 000:552.008 - 0.007ms returns 0
T2C540 000:552.018 JLINK_WriteReg(R11, 0x00000000)
T2C540 000:552.026 - 0.008ms returns 0
T2C540 000:552.036 JLINK_WriteReg(R12, 0x00000000)
T2C540 000:552.043 - 0.007ms returns 0
T2C540 000:552.053 JLINK_WriteReg(R13 (SP), 0x20001000)
T2C540 000:552.061 - 0.008ms returns 0
T2C540 000:552.071 JLINK_WriteReg(R14, 0x20000001)
T2C540 000:552.078 - 0.007ms returns 0
T2C540 000:552.088 JLINK_WriteReg(R15 (PC), 0x20000036)
T2C540 000:552.095 - 0.007ms returns 0
T2C540 000:552.105 JLINK_WriteReg(XPSR, 0x01000000)
T2C540 000:552.112 - 0.007ms returns 0
T2C540 000:552.122 JLINK_WriteReg(MSP, 0x20001000)
T2C540 000:552.129 - 0.007ms returns 0
T2C540 000:552.139 JLINK_WriteReg(PSP, 0x20001000)
T2C540 000:552.147 - 0.007ms returns 0
T2C540 000:552.157 JLINK_WriteReg(CFBP, 0x00000000)
T2C540 000:552.165 - 0.007ms returns 0
T2C540 000:552.175 JLINK_SetBPEx(Addr = 0x20000000, Type = 0xFFFFFFF2)
T2C540 000:552.183 - 0.009ms returns 0x00000003
T2C540 000:552.193 JLINK_Go()
T2C540 000:552.209   CPU_ReadMem(4 bytes @ 0xE0001000)
T2C540 000:559.613 - 7.417ms 
T2C540 000:559.669 JLINK_IsHalted()
T2C540 000:560.379 - 0.708ms returns FALSE
T2C540 000:560.419 JLINK_HasError()
T2C540 000:592.146 JLINK_IsHalted()
T2C540 000:592.803 - 0.656ms returns FALSE
T2C540 000:592.855 JLINK_HasError()
T2C540 000:594.663 JLINK_IsHalted()
T2C540 000:595.715 - 1.051ms returns FALSE
T2C540 000:595.748 JLINK_HasError()
T2C540 000:597.860 JLINK_IsHalted()
T2C540 000:598.513 - 0.652ms returns FALSE
T2C540 000:598.544 JLINK_HasError()
T2C540 000:601.994 JLINK_IsHalted()
T2C540 000:603.230 - 1.234ms returns FALSE
T2C540 000:603.264 JLINK_HasError()
T2C540 000:605.118 JLINK_IsHalted()
T2C540 000:605.796 - 0.676ms returns FALSE
T2C540 000:605.834 JLINK_HasError()
T2C540 000:609.968 JLINK_IsHalted()
T2C540 000:616.706   CPU_ReadMem(2 bytes @ 0x20000000)
T2C540 000:617.899 - 7.929ms returns TRUE
T2C540 000:617.965 JLINK_ReadReg(R15 (PC))
T2C540 000:617.976 - 0.010ms returns 0x20000000
T2C540 000:618.005 JLINK_ClrBPEx(BPHandle = 0x00000003)
T2C540 000:618.016 - 0.010ms returns 0x00
T2C540 000:618.029 JLINK_ReadReg(R0)
T2C540 000:618.038 - 0.009ms returns 0x00000000
T2C540 000:618.913 JLINK_HasError()
T2C540 000:618.942 JLINK_WriteReg(R0, 0x00001000)
T2C540 000:618.952 - 0.009ms returns 0
T2C540 000:618.962 JLINK_WriteReg(R1, 0x00001000)
T2C540 000:618.969 - 0.007ms returns 0
T2C540 000:618.979 JLINK_WriteReg(R2, 0x000000FF)
T2C540 000:618.986 - 0.007ms returns 0
T2C540 000:618.995 JLINK_WriteReg(R3, 0x00000000)
T2C540 000:619.002 - 0.007ms returns 0
T2C540 000:619.012 JLINK_WriteReg(R4, 0x00000000)
T2C540 000:619.019 - 0.007ms returns 0
T2C540 000:619.028 JLINK_WriteReg(R5, 0x00000000)
T2C540 000:619.035 - 0.006ms returns 0
T2C540 000:619.049 JLINK_WriteReg(R6, 0x00000000)
T2C540 000:619.060 - 0.010ms returns 0
T2C540 000:619.069 JLINK_WriteReg(R7, 0x00000000)
T2C540 000:619.076 - 0.007ms returns 0
T2C540 000:619.085 JLINK_WriteReg(R8, 0x00000000)
T2C540 000:619.092 - 0.007ms returns 0
T2C540 000:619.102 JLINK_WriteReg(R9, 0x20000490)
T2C540 000:619.109 - 0.007ms returns 0
T2C540 000:619.119 JLINK_WriteReg(R10, 0x00000000)
T2C540 000:619.126 - 0.007ms returns 0
T2C540 000:619.135 JLINK_WriteReg(R11, 0x00000000)
T2C540 000:619.142 - 0.007ms returns 0
T2C540 000:619.151 JLINK_WriteReg(R12, 0x00000000)
T2C540 000:619.158 - 0.007ms returns 0
T2C540 000:619.168 JLINK_WriteReg(R13 (SP), 0x20001000)
T2C540 000:619.175 - 0.008ms returns 0
T2C540 000:619.185 JLINK_WriteReg(R14, 0x20000001)
T2C540 000:619.192 - 0.007ms returns 0
T2C540 000:619.202 JLINK_WriteReg(R15 (PC), 0x20000028)
T2C540 000:619.209 - 0.007ms returns 0
T2C540 000:619.218 JLINK_WriteReg(XPSR, 0x01000000)
T2C540 000:619.225 - 0.007ms returns 0
T2C540 000:619.235 JLINK_WriteReg(MSP, 0x20001000)
T2C540 000:619.242 - 0.007ms returns 0
T2C540 000:619.251 JLINK_WriteReg(PSP, 0x20001000)
T2C540 000:619.258 - 0.007ms returns 0
T2C540 000:619.267 JLINK_WriteReg(CFBP, 0x00000000)
T2C540 000:619.274 - 0.007ms returns 0
T2C540 000:619.288 JLINK_SetBPEx(Addr = 0x20000000, Type = 0xFFFFFFF2)
T2C540 000:619.296 - 0.010ms returns 0x00000004
T2C540 000:619.306 JLINK_Go()
T2C540 000:619.321   CPU_ReadMem(4 bytes @ 0xE0001000)
T2C540 000:625.766 - 6.459ms 
T2C540 000:625.807 JLINK_IsHalted()
T2C540 000:632.154   CPU_ReadMem(2 bytes @ 0x20000000)
T2C540 000:633.031 - 7.223ms returns TRUE
T2C540 000:633.048 JLINK_ReadReg(R15 (PC))
T2C540 000:633.057 - 0.008ms returns 0x20000000
T2C540 000:633.067 JLINK_ClrBPEx(BPHandle = 0x00000004)
T2C540 000:633.074 - 0.007ms returns 0x00
T2C540 000:633.084 JLINK_ReadReg(R0)
T2C540 000:633.091 - 0.007ms returns 0x00000001
T2C540 000:633.101 JLINK_HasError()
T2C540 000:633.111 JLINK_WriteReg(R0, 0x00001000)
T2C540 000:633.119 - 0.007ms returns 0
T2C540 000:633.128 JLINK_WriteReg(R1, 0x00001000)
T2C540 000:633.136 - 0.007ms returns 0
T2C540 000:633.145 JLINK_WriteReg(R2, 0x000000FF)
T2C540 000:633.152 - 0.007ms returns 0
T2C540 000:633.161 JLINK_WriteReg(R3, 0x00000000)
T2C540 000:633.168 - 0.007ms returns 0
T2C540 000:633.178 JLINK_WriteReg(R4, 0x00000000)
T2C540 000:633.185 - 0.007ms returns 0
T2C540 000:633.194 JLINK_WriteReg(R5, 0x00000000)
T2C540 000:633.201 - 0.007ms returns 0
T2C540 000:633.210 JLINK_WriteReg(R6, 0x00000000)
T2C540 000:633.217 - 0.007ms returns 0
T2C540 000:633.226 JLINK_WriteReg(R7, 0x00000000)
T2C540 000:633.233 - 0.007ms returns 0
T2C540 000:633.242 JLINK_WriteReg(R8, 0x00000000)
T2C540 000:633.249 - 0.007ms returns 0
T2C540 000:633.259 JLINK_WriteReg(R9, 0x20000490)
T2C540 000:633.266 - 0.007ms returns 0
T2C540 000:633.275 JLINK_WriteReg(R10, 0x00000000)
T2C540 000:633.282 - 0.007ms returns 0
T2C540 000:633.291 JLINK_WriteReg(R11, 0x00000000)
T2C540 000:633.298 - 0.007ms returns 0
T2C540 000:633.308 JLINK_WriteReg(R12, 0x00000000)
T2C540 000:633.315 - 0.007ms returns 0
T2C540 000:633.325 JLINK_WriteReg(R13 (SP), 0x20001000)
T2C540 000:633.332 - 0.007ms returns 0
T2C540 000:633.341 JLINK_WriteReg(R14, 0x20000001)
T2C540 000:633.349 - 0.007ms returns 0
T2C540 000:633.358 JLINK_WriteReg(R15 (PC), 0x20000036)
T2C540 000:633.365 - 0.007ms returns 0
T2C540 000:633.374 JLINK_WriteReg(XPSR, 0x01000000)
T2C540 000:633.381 - 0.007ms returns 0
T2C540 000:633.391 JLINK_WriteReg(MSP, 0x20001000)
T2C540 000:633.398 - 0.007ms returns 0
T2C540 000:633.407 JLINK_WriteReg(PSP, 0x20001000)
T2C540 000:633.414 - 0.007ms returns 0
T2C540 000:633.423 JLINK_WriteReg(CFBP, 0x00000000)
T2C540 000:633.430 - 0.007ms returns 0
T2C540 000:633.440 JLINK_SetBPEx(Addr = 0x20000000, Type = 0xFFFFFFF2)
T2C540 000:633.448 - 0.008ms returns 0x00000005
T2C540 000:633.457 JLINK_Go()
T2C540 000:633.469   CPU_ReadMem(4 bytes @ 0xE0001000)
T2C540 000:640.894 - 7.436ms 
T2C540 000:640.928 JLINK_IsHalted()
T2C540 000:642.143 - 1.214ms returns FALSE
T2C540 000:642.181 JLINK_HasError()
T2C540 000:649.397 JLINK_IsHalted()
T2C540 000:650.624 - 1.226ms returns FALSE
T2C540 000:650.658 JLINK_HasError()
T2C540 000:652.132 JLINK_IsHalted()
T2C540 000:653.429 - 1.296ms returns FALSE
T2C540 000:653.463 JLINK_HasError()
T2C540 000:655.134 JLINK_IsHalted()
T2C540 000:656.325 - 1.190ms returns FALSE
T2C540 000:656.359 JLINK_HasError()
T2C540 000:657.831 JLINK_IsHalted()
T2C540 000:659.055 - 1.223ms returns FALSE
T2C540 000:659.089 JLINK_HasError()
T2C540 000:660.691 JLINK_IsHalted()
T2C540 000:661.874 - 1.181ms returns FALSE
T2C540 000:661.913 JLINK_HasError()
T2C540 000:663.315 JLINK_IsHalted()
T2C540 000:664.556 - 1.240ms returns FALSE
T2C540 000:664.590 JLINK_HasError()
T2C540 000:676.393 JLINK_IsHalted()
T2C540 000:677.099 - 0.706ms returns FALSE
T2C540 000:677.133 JLINK_HasError()
T2C540 000:679.677 JLINK_IsHalted()
T2C540 000:680.916 - 1.238ms returns FALSE
T2C540 000:680.951 JLINK_HasError()
T2C540 000:686.311 JLINK_IsHalted()
T2C540 000:692.983   CPU_ReadMem(2 bytes @ 0x20000000)
T2C540 000:693.811 - 7.499ms returns TRUE
T2C540 000:693.860 JLINK_ReadReg(R15 (PC))
T2C540 000:693.871 - 0.010ms returns 0x20000000
T2C540 000:693.881 JLINK_ClrBPEx(BPHandle = 0x00000005)
T2C540 000:693.889 - 0.008ms returns 0x00
T2C540 000:693.900 JLINK_ReadReg(R0)
T2C540 000:693.907 - 0.007ms returns 0x00000000
T2C540 000:694.737 JLINK_HasError()
T2C540 000:694.766 JLINK_WriteReg(R0, 0x00002000)
T2C540 000:694.775 - 0.009ms returns 0
T2C540 000:694.785 JLINK_WriteReg(R1, 0x00001000)
T2C540 000:694.792 - 0.007ms returns 0
T2C540 000:694.823 JLINK_WriteReg(R2, 0x000000FF)
T2C540 000:694.843 - 0.020ms returns 0
T2C540 000:694.856 JLINK_WriteReg(R3, 0x00000000)
T2C540 000:694.864 - 0.007ms returns 0
T2C540 000:694.889 JLINK_WriteReg(R4, 0x00000000)
T2C540 000:694.897 - 0.007ms returns 0
T2C540 000:694.908 JLINK_WriteReg(R5, 0x00000000)
T2C540 000:694.916 - 0.007ms returns 0
T2C540 000:694.927 JLINK_WriteReg(R6, 0x00000000)
T2C540 000:694.935 - 0.007ms returns 0
T2C540 000:694.946 JLINK_WriteReg(R7, 0x00000000)
T2C540 000:694.954 - 0.007ms returns 0
T2C540 000:694.980 JLINK_WriteReg(R8, 0x00000000)
T2C540 000:695.001 - 0.021ms returns 0
T2C540 000:695.013 JLINK_WriteReg(R9, 0x20000490)
T2C540 000:695.020 - 0.007ms returns 0
T2C540 000:695.032 JLINK_WriteReg(R10, 0x00000000)
T2C540 000:695.040 - 0.007ms returns 0
T2C540 000:695.051 JLINK_WriteReg(R11, 0x00000000)
T2C540 000:695.059 - 0.007ms returns 0
T2C540 000:695.070 JLINK_WriteReg(R12, 0x00000000)
T2C540 000:695.078 - 0.007ms returns 0
T2C540 000:695.103 JLINK_WriteReg(R13 (SP), 0x20001000)
T2C540 000:695.125 - 0.022ms returns 0
T2C540 000:695.136 JLINK_WriteReg(R14, 0x20000001)
T2C540 000:695.144 - 0.007ms returns 0
T2C540 000:695.154 JLINK_WriteReg(R15 (PC), 0x20000028)
T2C540 000:695.161 - 0.007ms returns 0
T2C540 000:695.171 JLINK_WriteReg(XPSR, 0x01000000)
T2C540 000:695.179 - 0.007ms returns 0
T2C540 000:695.190 JLINK_WriteReg(MSP, 0x20001000)
T2C540 000:695.198 - 0.007ms returns 0
T2C540 000:695.209 JLINK_WriteReg(PSP, 0x20001000)
T2C540 000:695.217 - 0.007ms returns 0
T2C540 000:695.227 JLINK_WriteReg(CFBP, 0x00000000)
T2C540 000:695.234 - 0.007ms returns 0
T2C540 000:695.244 JLINK_SetBPEx(Addr = 0x20000000, Type = 0xFFFFFFF2)
T2C540 000:695.253 - 0.008ms returns 0x00000006
T2C540 000:695.416 JLINK_Go()
T2C540 000:695.440   CPU_ReadMem(4 bytes @ 0xE0001000)
T2C540 000:702.481 - 7.063ms 
T2C540 000:702.515 JLINK_IsHalted()
T2C540 000:709.739   CPU_ReadMem(2 bytes @ 0x20000000)
T2C540 000:710.671 - 8.155ms returns TRUE
T2C540 000:710.690 JLINK_ReadReg(R15 (PC))
T2C540 000:710.699 - 0.009ms returns 0x20000000
T2C540 000:710.709 JLINK_ClrBPEx(BPHandle = 0x00000006)
T2C540 000:710.716 - 0.007ms returns 0x00
T2C540 000:710.726 JLINK_ReadReg(R0)
T2C540 000:710.733 - 0.007ms returns 0x00000001
T2C540 000:710.743 JLINK_HasError()
T2C540 000:710.753 JLINK_WriteReg(R0, 0x00002000)
T2C540 000:710.761 - 0.008ms returns 0
T2C540 000:710.775 JLINK_WriteReg(R1, 0x00001000)
T2C540 000:710.784 - 0.009ms returns 0
T2C540 000:710.794 JLINK_WriteReg(R2, 0x000000FF)
T2C540 000:710.801 - 0.007ms returns 0
T2C540 000:710.810 JLINK_WriteReg(R3, 0x00000000)
T2C540 000:710.817 - 0.007ms returns 0
T2C540 000:710.826 JLINK_WriteReg(R4, 0x00000000)
T2C540 000:710.833 - 0.007ms returns 0
T2C540 000:710.843 JLINK_WriteReg(R5, 0x00000000)
T2C540 000:710.850 - 0.006ms returns 0
T2C540 000:710.859 JLINK_WriteReg(R6, 0x00000000)
T2C540 000:710.866 - 0.006ms returns 0
T2C540 000:710.875 JLINK_WriteReg(R7, 0x00000000)
T2C540 000:710.882 - 0.006ms returns 0
T2C540 000:710.891 JLINK_WriteReg(R8, 0x00000000)
T2C540 000:710.898 - 0.007ms returns 0
T2C540 000:710.907 JLINK_WriteReg(R9, 0x20000490)
T2C540 000:710.914 - 0.007ms returns 0
T2C540 000:710.924 JLINK_WriteReg(R10, 0x00000000)
T2C540 000:710.931 - 0.007ms returns 0
T2C540 000:710.940 JLINK_WriteReg(R11, 0x00000000)
T2C540 000:710.947 - 0.007ms returns 0
T2C540 000:710.956 JLINK_WriteReg(R12, 0x00000000)
T2C540 000:710.963 - 0.006ms returns 0
T2C540 000:710.972 JLINK_WriteReg(R13 (SP), 0x20001000)
T2C540 000:710.980 - 0.007ms returns 0
T2C540 000:710.989 JLINK_WriteReg(R14, 0x20000001)
T2C540 000:710.996 - 0.007ms returns 0
T2C540 000:711.005 JLINK_WriteReg(R15 (PC), 0x20000036)
T2C540 000:711.012 - 0.007ms returns 0
T2C540 000:711.022 JLINK_WriteReg(XPSR, 0x01000000)
T2C540 000:711.029 - 0.007ms returns 0
T2C540 000:711.038 JLINK_WriteReg(MSP, 0x20001000)
T2C540 000:711.045 - 0.007ms returns 0
T2C540 000:711.054 JLINK_WriteReg(PSP, 0x20001000)
T2C540 000:711.061 - 0.007ms returns 0
T2C540 000:711.071 JLINK_WriteReg(CFBP, 0x00000000)
T2C540 000:711.078 - 0.007ms returns 0
T2C540 000:711.087 JLINK_SetBPEx(Addr = 0x20000000, Type = 0xFFFFFFF2)
T2C540 000:711.095 - 0.008ms returns 0x00000007
T2C540 000:711.105 JLINK_Go()
T2C540 000:711.116   CPU_ReadMem(4 bytes @ 0xE0001000)
T2C540 000:718.163 - 7.057ms 
T2C540 000:718.207 JLINK_IsHalted()
T2C540 000:718.862 - 0.655ms returns FALSE
T2C540 000:718.901 JLINK_HasError()
T2C540 000:730.180 JLINK_IsHalted()
T2C540 000:731.376 - 1.195ms returns FALSE
T2C540 000:731.410 JLINK_HasError()
T2C540 000:732.770 JLINK_IsHalted()
T2C540 000:733.478 - 0.706ms returns FALSE
T2C540 000:733.532 JLINK_HasError()
T2C540 000:735.281 JLINK_IsHalted()
T2C540 000:735.848 - 0.579ms returns FALSE
T2C540 000:735.873 JLINK_HasError()
T2C540 000:737.317 JLINK_IsHalted()
T2C540 000:738.148 - 0.830ms returns FALSE
T2C540 000:738.174 JLINK_HasError()
T2C540 000:740.115 JLINK_IsHalted()
T2C540 000:741.358 - 1.241ms returns FALSE
T2C540 000:741.391 JLINK_HasError()
T2C540 000:742.904 JLINK_IsHalted()
T2C540 000:743.676 - 0.771ms returns FALSE
T2C540 000:743.694 JLINK_HasError()
T2C540 000:745.803 JLINK_IsHalted()
T2C540 000:747.023 - 1.236ms returns FALSE
T2C540 000:747.060 JLINK_HasError()
T2C540 000:748.449 JLINK_IsHalted()
T2C540 000:749.231 - 0.782ms returns FALSE
T2C540 000:749.264 JLINK_HasError()
T2C540 000:751.429 JLINK_IsHalted()
T2C540 000:752.666 - 1.236ms returns FALSE
T2C540 000:752.700 JLINK_HasError()
T2C540 000:754.167 JLINK_IsHalted()
T2C540 000:755.494 - 1.325ms returns FALSE
T2C540 000:755.528 JLINK_HasError()
T2C540 000:757.167 JLINK_IsHalted()
T2C540 000:758.352 - 1.185ms returns FALSE
T2C540 000:758.387 JLINK_HasError()
T2C540 000:759.893 JLINK_IsHalted()
T2C540 000:761.164 - 1.269ms returns FALSE
T2C540 000:761.197 JLINK_HasError()
T2C540 000:762.849 JLINK_IsHalted()
T2C540 000:769.491   CPU_ReadMem(2 bytes @ 0x20000000)
T2C540 000:770.028 - 7.178ms returns TRUE
T2C540 000:770.062 JLINK_ReadReg(R15 (PC))
T2C540 000:770.072 - 0.009ms returns 0x20000000
T2C540 000:770.083 JLINK_ClrBPEx(BPHandle = 0x00000007)
T2C540 000:770.091 - 0.008ms returns 0x00
T2C540 000:770.101 JLINK_ReadReg(R0)
T2C540 000:770.110 - 0.008ms returns 0x00000000
T2C540 000:770.833 JLINK_HasError()
T2C540 000:770.856 JLINK_WriteReg(R0, 0x00003000)
T2C540 000:770.866 - 0.009ms returns 0
T2C540 000:770.876 JLINK_WriteReg(R1, 0x00001000)
T2C540 000:770.944 - 0.067ms returns 0
T2C540 000:770.955 JLINK_WriteReg(R2, 0x000000FF)
T2C540 000:770.962 - 0.007ms returns 0
T2C540 000:770.972 JLINK_WriteReg(R3, 0x00000000)
T2C540 000:770.980 - 0.007ms returns 0
T2C540 000:770.990 JLINK_WriteReg(R4, 0x00000000)
T2C540 000:770.997 - 0.007ms returns 0
T2C540 000:771.008 JLINK_WriteReg(R5, 0x00000000)
T2C540 000:771.015 - 0.007ms returns 0
T2C540 000:771.025 JLINK_WriteReg(R6, 0x00000000)
T2C540 000:771.033 - 0.007ms returns 0
T2C540 000:771.043 JLINK_WriteReg(R7, 0x00000000)
T2C540 000:771.050 - 0.007ms returns 0
T2C540 000:771.060 JLINK_WriteReg(R8, 0x00000000)
T2C540 000:771.068 - 0.007ms returns 0
T2C540 000:771.078 JLINK_WriteReg(R9, 0x20000490)
T2C540 000:771.085 - 0.007ms returns 0
T2C540 000:771.095 JLINK_WriteReg(R10, 0x00000000)
T2C540 000:771.103 - 0.007ms returns 0
T2C540 000:771.113 JLINK_WriteReg(R11, 0x00000000)
T2C540 000:771.120 - 0.007ms returns 0
T2C540 000:771.130 JLINK_WriteReg(R12, 0x00000000)
T2C540 000:771.138 - 0.007ms returns 0
T2C540 000:771.148 JLINK_WriteReg(R13 (SP), 0x20001000)
T2C540 000:771.156 - 0.008ms returns 0
T2C540 000:771.166 JLINK_WriteReg(R14, 0x20000001)
T2C540 000:771.174 - 0.008ms returns 0
T2C540 000:771.184 JLINK_WriteReg(R15 (PC), 0x20000028)
T2C540 000:771.192 - 0.007ms returns 0
T2C540 000:771.202 JLINK_WriteReg(XPSR, 0x01000000)
T2C540 000:771.210 - 0.008ms returns 0
T2C540 000:771.220 JLINK_WriteReg(MSP, 0x20001000)
T2C540 000:771.228 - 0.007ms returns 0
T2C540 000:771.238 JLINK_WriteReg(PSP, 0x20001000)
T2C540 000:771.245 - 0.007ms returns 0
T2C540 000:771.255 JLINK_WriteReg(CFBP, 0x00000000)
T2C540 000:771.266 - 0.010ms returns 0
T2C540 000:771.276 JLINK_SetBPEx(Addr = 0x20000000, Type = 0xFFFFFFF2)
T2C540 000:771.285 - 0.009ms returns 0x00000008
T2C540 000:771.296 JLINK_Go()
T2C540 000:771.313   CPU_ReadMem(4 bytes @ 0xE0001000)
T2C540 000:778.152 - 6.854ms 
T2C540 000:778.186 JLINK_IsHalted()
T2C540 000:784.758   CPU_ReadMem(2 bytes @ 0x20000000)
T2C540 000:785.330 - 7.143ms returns TRUE
T2C540 000:785.386 JLINK_ReadReg(R15 (PC))
T2C540 000:785.397 - 0.010ms returns 0x20000000
T2C540 000:785.428 JLINK_ClrBPEx(BPHandle = 0x00000008)
T2C540 000:785.444 - 0.016ms returns 0x00
T2C540 000:785.458 JLINK_ReadReg(R0)
T2C540 000:785.466 - 0.008ms returns 0x00000001
T2C540 000:785.477 JLINK_HasError()
T2C540 000:785.489 JLINK_WriteReg(R0, 0x00003000)
T2C540 000:785.497 - 0.008ms returns 0
T2C540 000:785.526 JLINK_WriteReg(R1, 0x00001000)
T2C540 000:785.550 - 0.024ms returns 0
T2C540 000:785.566 JLINK_WriteReg(R2, 0x000000FF)
T2C540 000:785.575 - 0.009ms returns 0
T2C540 000:785.585 JLINK_WriteReg(R3, 0x00000000)
T2C540 000:785.593 - 0.007ms returns 0
T2C540 000:785.603 JLINK_WriteReg(R4, 0x00000000)
T2C540 000:785.610 - 0.007ms returns 0
T2C540 000:785.622 JLINK_WriteReg(R5, 0x00000000)
T2C540 000:785.629 - 0.007ms returns 0
T2C540 000:785.639 JLINK_WriteReg(R6, 0x00000000)
T2C540 000:785.646 - 0.007ms returns 0
T2C540 000:785.656 JLINK_WriteReg(R7, 0x00000000)
T2C540 000:785.664 - 0.007ms returns 0
T2C540 000:785.790 JLINK_WriteReg(R8, 0x00000000)
T2C540 000:785.804 - 0.013ms returns 0
T2C540 000:785.814 JLINK_WriteReg(R9, 0x20000490)
T2C540 000:785.822 - 0.007ms returns 0
T2C540 000:785.831 JLINK_WriteReg(R10, 0x00000000)
T2C540 000:785.838 - 0.007ms returns 0
T2C540 000:785.847 JLINK_WriteReg(R11, 0x00000000)
T2C540 000:785.854 - 0.007ms returns 0
T2C540 000:785.864 JLINK_WriteReg(R12, 0x00000000)
T2C540 000:785.871 - 0.007ms returns 0
T2C540 000:785.880 JLINK_WriteReg(R13 (SP), 0x20001000)
T2C540 000:785.887 - 0.007ms returns 0
T2C540 000:785.897 JLINK_WriteReg(R14, 0x20000001)
T2C540 000:785.904 - 0.007ms returns 0
T2C540 000:785.913 JLINK_WriteReg(R15 (PC), 0x20000036)
T2C540 000:785.920 - 0.007ms returns 0
T2C540 000:785.930 JLINK_WriteReg(XPSR, 0x01000000)
T2C540 000:785.937 - 0.007ms returns 0
T2C540 000:785.946 JLINK_WriteReg(MSP, 0x20001000)
T2C540 000:785.953 - 0.007ms returns 0
T2C540 000:785.962 JLINK_WriteReg(PSP, 0x20001000)
T2C540 000:785.974 - 0.011ms returns 0
T2C540 000:785.983 JLINK_WriteReg(CFBP, 0x00000000)
T2C540 000:785.990 - 0.007ms returns 0
T2C540 000:786.000 JLINK_SetBPEx(Addr = 0x20000000, Type = 0xFFFFFFF2)
T2C540 000:786.009 - 0.008ms returns 0x00000009
T2C540 000:786.018 JLINK_Go()
T2C540 000:786.030   CPU_ReadMem(4 bytes @ 0xE0001000)
T2C540 000:793.337 - 7.317ms 
T2C540 000:793.374 JLINK_IsHalted()
T2C540 000:793.958 - 0.582ms returns FALSE
T2C540 000:793.996 JLINK_HasError()
T2C540 000:801.580 JLINK_IsHalted()
T2C540 000:802.828 - 1.247ms returns FALSE
T2C540 000:802.863 JLINK_HasError()
T2C540 000:805.321 JLINK_IsHalted()
T2C540 000:806.590 - 1.268ms returns FALSE
T2C540 000:806.624 JLINK_HasError()
T2C540 000:807.762 JLINK_IsHalted()
T2C540 000:809.010 - 1.247ms returns FALSE
T2C540 000:809.044 JLINK_HasError()
T2C540 000:810.972 JLINK_IsHalted()
T2C540 000:811.681 - 0.708ms returns FALSE
T2C540 000:811.787 JLINK_HasError()
T2C540 000:820.373 JLINK_IsHalted()
T2C540 000:821.597 - 1.223ms returns FALSE
T2C540 000:821.631 JLINK_HasError()
T2C540 000:823.102 JLINK_IsHalted()
T2C540 000:824.402 - 1.298ms returns FALSE
T2C540 000:824.435 JLINK_HasError()
T2C540 000:826.158 JLINK_IsHalted()
T2C540 000:826.885 - 0.726ms returns FALSE
T2C540 000:826.920 JLINK_HasError()
T2C540 000:828.541 JLINK_IsHalted()
T2C540 000:829.137 - 0.595ms returns FALSE
T2C540 000:829.160 JLINK_HasError()
T2C540 000:830.532 JLINK_IsHalted()
T2C540 000:831.079 - 0.547ms returns FALSE
T2C540 000:831.107 JLINK_HasError()
T2C540 000:832.561 JLINK_IsHalted()
T2C540 000:833.146 - 0.584ms returns FALSE
T2C540 000:833.166 JLINK_HasError()
T2C540 000:834.605 JLINK_IsHalted()
T2C540 000:835.141 - 0.535ms returns FALSE
T2C540 000:835.170 JLINK_HasError()
T2C540 000:836.510 JLINK_IsHalted()
T2C540 000:837.052 - 0.541ms returns FALSE
T2C540 000:837.084 JLINK_HasError()
T2C540 000:838.522 JLINK_IsHalted()
T2C540 000:839.058 - 0.536ms returns FALSE
T2C540 000:839.089 JLINK_HasError()
T2C540 000:840.500 JLINK_IsHalted()
T2C540 000:841.064 - 0.564ms returns FALSE
T2C540 000:841.097 JLINK_HasError()
T2C540 000:842.530 JLINK_IsHalted()
T2C540 000:843.106 - 0.575ms returns FALSE
T2C540 000:843.126 JLINK_HasError()
T2C540 000:844.516 JLINK_IsHalted()
T2C540 000:845.062 - 0.546ms returns FALSE
T2C540 000:845.090 JLINK_HasError()
T2C540 000:846.491 JLINK_IsHalted()
T2C540 000:847.055 - 0.563ms returns FALSE
T2C540 000:847.082 JLINK_HasError()
T2C540 000:848.531 JLINK_IsHalted()
T2C540 000:849.086 - 0.554ms returns FALSE
T2C540 000:849.118 JLINK_HasError()
T2C540 000:850.533 JLINK_IsHalted()
T2C540 000:851.116 - 0.583ms returns FALSE
T2C540 000:851.142 JLINK_HasError()
T2C540 000:852.930 JLINK_IsHalted()
T2C540 000:859.540   CPU_ReadMem(2 bytes @ 0x20000000)
T2C540 000:860.150 - 7.219ms returns TRUE
T2C540 000:860.170 JLINK_ReadReg(R15 (PC))
T2C540 000:860.194 - 0.023ms returns 0x20000000
T2C540 000:860.205 JLINK_ClrBPEx(BPHandle = 0x00000009)
T2C540 000:860.213 - 0.008ms returns 0x00
T2C540 000:860.224 JLINK_ReadReg(R0)
T2C540 000:860.240 - 0.015ms returns 0x00000000
T2C540 000:862.326 JLINK_HasError()
T2C540 000:862.365 JLINK_WriteReg(R0, 0x00004000)
T2C540 000:862.375 - 0.009ms returns 0
T2C540 000:862.385 JLINK_WriteReg(R1, 0x00001000)
T2C540 000:862.393 - 0.008ms returns 0
T2C540 000:862.404 JLINK_WriteReg(R2, 0x000000FF)
T2C540 000:862.411 - 0.007ms returns 0
T2C540 000:862.435 JLINK_WriteReg(R3, 0x00000000)
T2C540 000:862.443 - 0.008ms returns 0
T2C540 000:862.453 JLINK_WriteReg(R4, 0x00000000)
T2C540 000:862.460 - 0.007ms returns 0
T2C540 000:862.470 JLINK_WriteReg(R5, 0x00000000)
T2C540 000:862.478 - 0.007ms returns 0
T2C540 000:862.488 JLINK_WriteReg(R6, 0x00000000)
T2C540 000:862.496 - 0.007ms returns 0
T2C540 000:862.506 JLINK_WriteReg(R7, 0x00000000)
T2C540 000:862.513 - 0.007ms returns 0
T2C540 000:862.523 JLINK_WriteReg(R8, 0x00000000)
T2C540 000:862.531 - 0.007ms returns 0
T2C540 000:862.541 JLINK_WriteReg(R9, 0x20000490)
T2C540 000:862.554 - 0.012ms returns 0
T2C540 000:862.567 JLINK_WriteReg(R10, 0x00000000)
T2C540 000:862.574 - 0.007ms returns 0
T2C540 000:862.584 JLINK_WriteReg(R11, 0x00000000)
T2C540 000:862.592 - 0.007ms returns 0
T2C540 000:862.602 JLINK_WriteReg(R12, 0x00000000)
T2C540 000:862.610 - 0.007ms returns 0
T2C540 000:862.620 JLINK_WriteReg(R13 (SP), 0x20001000)
T2C540 000:862.628 - 0.008ms returns 0
T2C540 000:862.638 JLINK_WriteReg(R14, 0x20000001)
T2C540 000:862.646 - 0.007ms returns 0
T2C540 000:862.656 JLINK_WriteReg(R15 (PC), 0x20000028)
T2C540 000:862.664 - 0.008ms returns 0
T2C540 000:862.674 JLINK_WriteReg(XPSR, 0x01000000)
T2C540 000:862.682 - 0.007ms returns 0
T2C540 000:862.692 JLINK_WriteReg(MSP, 0x20001000)
T2C540 000:862.700 - 0.007ms returns 0
T2C540 000:862.710 JLINK_WriteReg(PSP, 0x20001000)
T2C540 000:862.718 - 0.007ms returns 0
T2C540 000:862.728 JLINK_WriteReg(CFBP, 0x00000000)
T2C540 000:862.735 - 0.007ms returns 0
T2C540 000:862.746 JLINK_SetBPEx(Addr = 0x20000000, Type = 0xFFFFFFF2)
T2C540 000:862.754 - 0.008ms returns 0x0000000A
T2C540 000:862.765 JLINK_Go()
T2C540 000:862.779   CPU_ReadMem(4 bytes @ 0xE0001000)
T2C540 000:869.404 - 6.638ms 
T2C540 000:869.442 JLINK_IsHalted()
T2C540 000:876.779   CPU_ReadMem(2 bytes @ 0x20000000)
T2C540 000:877.339 - 7.896ms returns TRUE
T2C540 000:877.367 JLINK_ReadReg(R15 (PC))
T2C540 000:877.416 - 0.048ms returns 0x20000000
T2C540 000:877.430 JLINK_ClrBPEx(BPHandle = 0x0000000A)
T2C540 000:877.454 - 0.024ms returns 0x00
T2C540 000:877.466 JLINK_ReadReg(R0)
T2C540 000:877.474 - 0.007ms returns 0x00000001
T2C540 000:877.487 JLINK_HasError()
T2C540 000:877.500 JLINK_WriteReg(R0, 0x00004000)
T2C540 000:877.508 - 0.008ms returns 0
T2C540 000:877.523 JLINK_WriteReg(R1, 0x00001000)
T2C540 000:877.542 - 0.018ms returns 0
T2C540 000:877.562 JLINK_WriteReg(R2, 0x000000FF)
T2C540 000:877.571 - 0.008ms returns 0
T2C540 000:877.582 JLINK_WriteReg(R3, 0x00000000)
T2C540 000:877.590 - 0.007ms returns 0
T2C540 000:877.600 JLINK_WriteReg(R4, 0x00000000)
T2C540 000:877.608 - 0.007ms returns 0
T2C540 000:877.631 JLINK_WriteReg(R5, 0x00000000)
T2C540 000:877.654 - 0.023ms returns 0
T2C540 000:877.681 JLINK_WriteReg(R6, 0x00000000)
T2C540 000:877.689 - 0.007ms returns 0
T2C540 000:877.701 JLINK_WriteReg(R7, 0x00000000)
T2C540 000:877.722 - 0.020ms returns 0
T2C540 000:877.734 JLINK_WriteReg(R8, 0x00000000)
T2C540 000:877.741 - 0.007ms returns 0
T2C540 000:877.753 JLINK_WriteReg(R9, 0x20000490)
T2C540 000:877.761 - 0.007ms returns 0
T2C540 000:877.773 JLINK_WriteReg(R10, 0x00000000)
T2C540 000:877.780 - 0.007ms returns 0
T2C540 000:877.792 JLINK_WriteReg(R11, 0x00000000)
T2C540 000:877.800 - 0.007ms returns 0
T2C540 000:877.812 JLINK_WriteReg(R12, 0x00000000)
T2C540 000:877.819 - 0.007ms returns 0
T2C540 000:877.831 JLINK_WriteReg(R13 (SP), 0x20001000)
T2C540 000:877.839 - 0.008ms returns 0
T2C540 000:877.851 JLINK_WriteReg(R14, 0x20000001)
T2C540 000:877.859 - 0.007ms returns 0
T2C540 000:877.869 JLINK_WriteReg(R15 (PC), 0x20000036)
T2C540 000:877.877 - 0.007ms returns 0
T2C540 000:877.887 JLINK_WriteReg(XPSR, 0x01000000)
T2C540 000:877.895 - 0.007ms returns 0
T2C540 000:878.057 JLINK_WriteReg(MSP, 0x20001000)
T2C540 000:878.070 - 0.013ms returns 0
T2C540 000:878.081 JLINK_WriteReg(PSP, 0x20001000)
T2C540 000:878.088 - 0.007ms returns 0
T2C540 000:878.098 JLINK_WriteReg(CFBP, 0x00000000)
T2C540 000:878.105 - 0.007ms returns 0
T2C540 000:878.116 JLINK_SetBPEx(Addr = 0x20000000, Type = 0xFFFFFFF2)
T2C540 000:878.124 - 0.008ms returns 0x0000000B
T2C540 000:878.134 JLINK_Go()
T2C540 000:878.146   CPU_ReadMem(4 bytes @ 0xE0001000)
T2C540 000:885.589 - 7.453ms 
T2C540 000:885.622 JLINK_IsHalted()
T2C540 000:886.838 - 1.214ms returns FALSE
T2C540 000:886.872 JLINK_HasError()
T2C540 000:893.613 JLINK_IsHalted()
T2C540 000:894.191 - 0.577ms returns FALSE
T2C540 000:894.225 JLINK_HasError()
T2C540 000:895.550 JLINK_IsHalted()
T2C540 000:896.100 - 0.548ms returns FALSE
T2C540 000:896.118 JLINK_HasError()
T2C540 000:897.543 JLINK_IsHalted()
T2C540 000:898.133 - 0.589ms returns FALSE
T2C540 000:898.152 JLINK_HasError()
T2C540 000:899.537 JLINK_IsHalted()
T2C540 000:900.075 - 0.537ms returns FALSE
T2C540 000:900.107 JLINK_HasError()
T2C540 000:901.532 JLINK_IsHalted()
T2C540 000:902.095 - 0.562ms returns FALSE
T2C540 000:902.113 JLINK_HasError()
T2C540 000:903.491 JLINK_IsHalted()
T2C540 000:904.075 - 0.583ms returns FALSE
T2C540 000:904.101 JLINK_HasError()
T2C540 000:905.490 JLINK_IsHalted()
T2C540 000:906.071 - 0.579ms returns FALSE
T2C540 000:906.097 JLINK_HasError()
T2C540 000:912.514 JLINK_IsHalted()
T2C540 000:913.117 - 0.602ms returns FALSE
T2C540 000:913.138 JLINK_HasError()
T2C540 000:914.463 JLINK_IsHalted()
T2C540 000:915.056 - 0.592ms returns FALSE
T2C540 000:915.075 JLINK_HasError()
T2C540 000:916.506 JLINK_IsHalted()
T2C540 000:917.065 - 0.558ms returns FALSE
T2C540 000:917.084 JLINK_HasError()
T2C540 000:918.504 JLINK_IsHalted()
T2C540 000:919.036 - 0.531ms returns FALSE
T2C540 000:919.054 JLINK_HasError()
T2C540 000:920.479 JLINK_IsHalted()
T2C540 000:921.019 - 0.539ms returns FALSE
T2C540 000:921.051 JLINK_HasError()
T2C540 000:924.482 JLINK_IsHalted()
T2C540 000:925.069 - 0.586ms returns FALSE
T2C540 000:925.088 JLINK_HasError()
T2C540 000:926.470 JLINK_IsHalted()
T2C540 000:927.036 - 0.565ms returns FALSE
T2C540 000:927.055 JLINK_HasError()
T2C540 000:928.467 JLINK_IsHalted()
T2C540 000:929.007 - 0.539ms returns FALSE
T2C540 000:929.039 JLINK_HasError()
T2C540 000:930.465 JLINK_IsHalted()
T2C540 000:931.039 - 0.573ms returns FALSE
T2C540 000:931.058 JLINK_HasError()
T2C540 000:932.454 JLINK_IsHalted()
T2C540 000:933.017 - 0.562ms returns FALSE
T2C540 000:933.035 JLINK_HasError()
T2C540 000:934.449 JLINK_IsHalted()
T2C540 000:935.014 - 0.564ms returns FALSE
T2C540 000:935.033 JLINK_HasError()
T2C540 000:936.411 JLINK_IsHalted()
T2C540 000:942.233   CPU_ReadMem(2 bytes @ 0x20000000)
T2C540 000:942.780 - 6.368ms returns TRUE
T2C540 000:942.801 JLINK_ReadReg(R15 (PC))
T2C540 000:942.811 - 0.009ms returns 0x20000000
T2C540 000:942.835 JLINK_ClrBPEx(BPHandle = 0x0000000B)
T2C540 000:942.844 - 0.008ms returns 0x00
T2C540 000:942.854 JLINK_ReadReg(R0)
T2C540 000:942.862 - 0.007ms returns 0x00000000
T2C540 000:943.584 JLINK_HasError()
T2C540 000:943.602 JLINK_WriteReg(R0, 0x00005000)
T2C540 000:943.611 - 0.009ms returns 0
T2C540 000:943.621 JLINK_WriteReg(R1, 0x00001000)
T2C540 000:943.629 - 0.007ms returns 0
T2C540 000:943.639 JLINK_WriteReg(R2, 0x000000FF)
T2C540 000:943.647 - 0.007ms returns 0
T2C540 000:943.657 JLINK_WriteReg(R3, 0x00000000)
T2C540 000:943.665 - 0.007ms returns 0
T2C540 000:943.675 JLINK_WriteReg(R4, 0x00000000)
T2C540 000:943.683 - 0.007ms returns 0
T2C540 000:943.693 JLINK_WriteReg(R5, 0x00000000)
T2C540 000:943.701 - 0.007ms returns 0
T2C540 000:943.711 JLINK_WriteReg(R6, 0x00000000)
T2C540 000:943.718 - 0.007ms returns 0
T2C540 000:943.728 JLINK_WriteReg(R7, 0x00000000)
T2C540 000:943.736 - 0.007ms returns 0
T2C540 000:943.746 JLINK_WriteReg(R8, 0x00000000)
T2C540 000:943.754 - 0.007ms returns 0
T2C540 000:943.764 JLINK_WriteReg(R9, 0x20000490)
T2C540 000:943.772 - 0.007ms returns 0
T2C540 000:943.782 JLINK_WriteReg(R10, 0x00000000)
T2C540 000:943.789 - 0.007ms returns 0
T2C540 000:943.799 JLINK_WriteReg(R11, 0x00000000)
T2C540 000:943.807 - 0.007ms returns 0
T2C540 000:943.817 JLINK_WriteReg(R12, 0x00000000)
T2C540 000:943.825 - 0.007ms returns 0
T2C540 000:943.835 JLINK_WriteReg(R13 (SP), 0x20001000)
T2C540 000:943.843 - 0.008ms returns 0
T2C540 000:943.853 JLINK_WriteReg(R14, 0x20000001)
T2C540 000:943.861 - 0.007ms returns 0
T2C540 000:943.871 JLINK_WriteReg(R15 (PC), 0x20000028)
T2C540 000:943.879 - 0.008ms returns 0
T2C540 000:943.889 JLINK_WriteReg(XPSR, 0x01000000)
T2C540 000:943.897 - 0.007ms returns 0
T2C540 000:943.907 JLINK_WriteReg(MSP, 0x20001000)
T2C540 000:943.915 - 0.007ms returns 0
T2C540 000:943.925 JLINK_WriteReg(PSP, 0x20001000)
T2C540 000:943.932 - 0.007ms returns 0
T2C540 000:943.947 JLINK_WriteReg(CFBP, 0x00000000)
T2C540 000:943.957 - 0.010ms returns 0
T2C540 000:943.968 JLINK_SetBPEx(Addr = 0x20000000, Type = 0xFFFFFFF2)
T2C540 000:943.977 - 0.008ms returns 0x0000000C
T2C540 000:943.987 JLINK_Go()
T2C540 000:944.002   CPU_ReadMem(4 bytes @ 0xE0001000)
T2C540 000:950.667 - 6.679ms 
T2C540 000:950.701 JLINK_IsHalted()
T2C540 000:956.942   CPU_ReadMem(2 bytes @ 0x20000000)
T2C540 000:957.548 - 6.846ms returns TRUE
T2C540 000:957.592 JLINK_ReadReg(R15 (PC))
T2C540 000:957.609 - 0.017ms returns 0x20000000
T2C540 000:957.626 JLINK_ClrBPEx(BPHandle = 0x0000000C)
T2C540 000:957.643 - 0.016ms returns 0x00
T2C540 000:957.660 JLINK_ReadReg(R0)
T2C540 000:957.676 - 0.016ms returns 0x00000001
T2C540 000:957.694 JLINK_HasError()
T2C540 000:957.719 JLINK_WriteReg(R0, 0x00005000)
T2C540 000:957.736 - 0.017ms returns 0
T2C540 000:957.752 JLINK_WriteReg(R1, 0x00001000)
T2C540 000:957.768 - 0.016ms returns 0
T2C540 000:957.785 JLINK_WriteReg(R2, 0x000000FF)
T2C540 000:957.801 - 0.016ms returns 0
T2C540 000:957.818 JLINK_WriteReg(R3, 0x00000000)
T2C540 000:957.834 - 0.016ms returns 0
T2C540 000:957.851 JLINK_WriteReg(R4, 0x00000000)
T2C540 000:957.867 - 0.015ms returns 0
T2C540 000:957.883 JLINK_WriteReg(R5, 0x00000000)
T2C540 000:957.899 - 0.016ms returns 0
T2C540 000:957.916 JLINK_WriteReg(R6, 0x00000000)
T2C540 000:957.932 - 0.016ms returns 0
T2C540 000:957.948 JLINK_WriteReg(R7, 0x00000000)
T2C540 000:957.964 - 0.016ms returns 0
T2C540 000:957.981 JLINK_WriteReg(R8, 0x00000000)
T2C540 000:957.997 - 0.016ms returns 0
T2C540 000:958.014 JLINK_WriteReg(R9, 0x20000490)
T2C540 000:958.030 - 0.016ms returns 0
T2C540 000:958.043 JLINK_WriteReg(R10, 0x00000000)
T2C540 000:958.051 - 0.008ms returns 0
T2C540 000:958.061 JLINK_WriteReg(R11, 0x00000000)
T2C540 000:958.069 - 0.007ms returns 0
T2C540 000:958.079 JLINK_WriteReg(R12, 0x00000000)
